T09D0 13448:570 SEGGER J-Link V4.98e Log File (0001ms, 137134ms total)
T09D0 13448:570 DLL Compiled: May  5 2015 11:00:52 (0001ms, 137134ms total)
T09D0 13448:570 Logging started @ 2016-05-03 23:03 (0001ms, 137134ms total)
T09D0 13448:583 JLINK_ExecCommand("Device = AT91SAM4SD32C", ...)Device "ATSAM4SD32C" selected.  returns 0x00 (0001ms, 137135ms total)
T09D0 13448:615 JLINK_ExecCommand("ProjectFile = C:\Users\rafa\Documents\Atmel Studio\7.0\Timer-Counter\Timer-Counter\jlink.config", ...)  returns 0x00 (0000ms, 137135ms total)
T09D0 13448:627 JLINK_ExecCommand("Device = AT91SAM4SD32C", ...)Device "ATSAM4SD32C" selected.  returns 0x00 (0002ms, 137137ms total)
T09D0 13448:629 JLINK_TIF_Select(JLINKARM_TIF_JTAG)  returns 0x00 (0026ms, 137163ms total)
T09D0 13448:655 JLINK_GetIdData(...) >0x2F8 JTAG>TotalIRLen = 4, IRPrint = 0x01 >0x30 JTAG> >0x210 JTAG> >0x70 JTAG> >0x40 JTAG> >0x40 JTAG> >0x40 JTAG> >0x48 JTAG> >0x78 JTAG> >0x40 JTAG> >0x30 JTAG> >0x40 JTAG> >0x40 JTAG> >0x30 JTAG> >0x40 JTAG> >0x48 JTAG>Found Cortex-M4 r0p1, Little endian. -- CPU_WriteMem(4 bytes @ 0xE0002000) -- CPU_ReadMem(4 bytes @ 0xE000EDF0) -- CPU_ReadMem(4 bytes @ 0xE0002000)FPUnit: 6 code (BP) slots and 2 literal slots -- CPU_ReadMem(4 bytes @ 0xE000EDFC)
 -- CPU_ReadMem(4 bytes @ 0xE0001000) -- CPU_WriteMem(4 bytes @ 0xE0001000) -- CPU_ReadMem(4 bytes @ 0xE000ED88) -- CPU_WriteMem(4 bytes @ 0xE000ED88) -- CPU_ReadMem(4 bytes @ 0xE000ED88) -- CPU_WriteMem(4 bytes @ 0xE000ED88)CoreSight components:ROMTbl 0 @ E00FF000 -- CPU_ReadMem(16 bytes @ 0xE00FF000) -- CPU_ReadMem(16 bytes @ 0xE000EFF0) -- CPU_ReadMem(16 bytes @ 0xE000EFE0)ROMTbl 0 [0]: FFF0F000, CID: B105E00D, PID: 000BB000 SCS -- CPU_ReadMem(16 bytes @ 0xE0001FF0)
 -- CPU_ReadMem(16 bytes @ 0xE0001FE0)ROMTbl 0 [1]: FFF02000, CID: B105E00D, PID: 003BB002 DWT -- CPU_ReadMem(16 bytes @ 0xE0002FF0) -- CPU_ReadMem(16 bytes @ 0xE0002FE0)ROMTbl 0 [2]: FFF03000, CID: B105E00D, PID: 002BB003 FPB -- CPU_ReadMem(16 bytes @ 0xE0000FF0) -- CPU_ReadMem(16 bytes @ 0xE0000FE0)ROMTbl 0 [3]: FFF01000, CID: B105E00D, PID: 003BB001 ITM -- CPU_ReadMem(16 bytes @ 0xE00FF010) -- CPU_ReadMem(16 bytes @ 0xE0040FF0) -- CPU_ReadMem(16 bytes @ 0xE0040FE0)
ROMTbl 0 [4]: FFF41000, CID: B105900D, PID: 000BB9A1 TPIU ScanLen=4 NumDevices=1 aId[0]=0x4BA00477 aIrRead[0]=0 aScanLen[0]=0 aScanRead[0]=0 (1138ms, 138301ms total)
T09D0 13449:797 JLINK_ConfigJTAG(IRPre = 0, DRPre = 0) (0000ms, 138301ms total)
T09D0 13449:797 JLINK_SetSpeed(1000) (0003ms, 138304ms total)
T09D0 13449:800 JLINK_ResetPullsRESET(OFF) (0000ms, 138304ms total)
T09D0 13449:800 JLINK_Connect() >0x2F8 JTAG>TotalIRLen = 4, IRPrint = 0x01 >0x30 JTAG> >0x210 JTAG> >0x70 JTAG> >0x40 JTAG> >0x40 JTAG> >0x40 JTAG> >0x48 JTAG> >0x78 JTAG> >0x40 JTAG> >0x30 JTAG> >0x40 JTAG> >0x40 JTAG> >0x30 JTAG> >0x40 JTAG> >0x48 JTAG>Found Cortex-M4 r0p1, Little endian. -- CPU_WriteMem(4 bytes @ 0xE0002000) -- CPU_ReadMem(4 bytes @ 0xE000EDF0) -- CPU_ReadMem(4 bytes @ 0xE0002000)FPUnit: 6 code (BP) slots and 2 literal slots -- CPU_ReadMem(4 bytes @ 0xE000EDFC)
 -- CPU_ReadMem(4 bytes @ 0xE0001000) -- CPU_WriteMem(4 bytes @ 0xE0001000) -- CPU_ReadMem(4 bytes @ 0xE000ED88) -- CPU_WriteMem(4 bytes @ 0xE000ED88) -- CPU_ReadMem(4 bytes @ 0xE000ED88) -- CPU_WriteMem(4 bytes @ 0xE000ED88)CoreSight components:ROMTbl 0 @ E00FF000 -- CPU_ReadMem(16 bytes @ 0xE00FF000) -- CPU_ReadMem(16 bytes @ 0xE000EFF0) -- CPU_ReadMem(16 bytes @ 0xE000EFE0)ROMTbl 0 [0]: FFF0F000, CID: B105E00D, PID: 000BB000 SCS -- CPU_ReadMem(16 bytes @ 0xE0001FF0)
 -- CPU_ReadMem(16 bytes @ 0xE0001FE0)ROMTbl 0 [1]: FFF02000, CID: B105E00D, PID: 003BB002 DWT -- CPU_ReadMem(16 bytes @ 0xE0002FF0) -- CPU_ReadMem(16 bytes @ 0xE0002FE0)ROMTbl 0 [2]: FFF03000, CID: B105E00D, PID: 002BB003 FPB -- CPU_ReadMem(16 bytes @ 0xE0000FF0) -- CPU_ReadMem(16 bytes @ 0xE0000FE0)ROMTbl 0 [3]: FFF01000, CID: B105E00D, PID: 003BB001 ITM -- CPU_ReadMem(16 bytes @ 0xE00FF010) -- CPU_ReadMem(16 bytes @ 0xE0040FF0) -- CPU_ReadMem(16 bytes @ 0xE0040FE0)
ROMTbl 0 [4]: FFF41000, CID: B105900D, PID: 000BB9A1 TPIU  returns 0x00 (0103ms, 138407ms total)
T09D0 13449:903 JLINK_GetDebugInfo(0x100) -- Value=0xE00FF003  returns 0x00 (0002ms, 138409ms total)
T09D0 13449:905 JLINK_ReadMem (0xE00FFFF0, 0x0010 Bytes, ...) -- CPU is running -- CPU_ReadMem(16 bytes @ 0xE00FFFF0) - Data: 0D 00 00 00 10 00 00 00 05 00 00 00 B1 00 00 00  returns 0x00 (0005ms, 138414ms total)
T09D0 13449:910 JLINK_ReadMem (0xE00FFFD0, 0x0020 Bytes, ...) -- CPU is running -- CPU_ReadMem(32 bytes @ 0xE00FFFD0) - Data: 04 00 00 00 00 00 00 00 00 00 00 00 00 00 00 00 ...  returns 0x00 (0004ms, 138418ms total)
T09D0 13449:914 JLINK_ReadMemU32(0xE00FF000, 0x0001 Items, ...) -- CPU is running -- CPU_ReadMem(4 bytes @ 0xE00FF000) - Data: 03 F0 F0 FF  returns 0x01 (0004ms, 138422ms total)
T09D0 13449:918 JLINK_ReadMem (0xE000EFF0, 0x0010 Bytes, ...) -- CPU is running -- CPU_ReadMem(16 bytes @ 0xE000EFF0) - Data: 0D 00 00 00 E0 00 00 00 05 00 00 00 B1 00 00 00  returns 0x00 (0003ms, 138425ms total)
T09D0 13449:921 JLINK_ReadMem (0xE000EFD0, 0x0020 Bytes, ...) -- CPU is running -- CPU_ReadMem(32 bytes @ 0xE000EFD0) - Data: 04 00 00 00 00 00 00 00 00 00 00 00 00 00 00 00 ...  returns 0x00 (0002ms, 138427ms total)
T09D0 13449:923 JLINK_ReadMemU32(0xE00FF004, 0x0001 Items, ...) -- CPU is running -- CPU_ReadMem(4 bytes @ 0xE00FF004) - Data: 03 20 F0 FF  returns 0x01 (0003ms, 138430ms total)
T09D0 13449:926 JLINK_ReadMem (0xE0001FF0, 0x0010 Bytes, ...) -- CPU is running -- CPU_ReadMem(16 bytes @ 0xE0001FF0) - Data: 0D 00 00 00 E0 00 00 00 05 00 00 00 B1 00 00 00  returns 0x00 (0002ms, 138432ms total)
T09D0 13449:928 JLINK_ReadMem (0xE0001FD0, 0x0020 Bytes, ...) -- CPU is running -- CPU_ReadMem(32 bytes @ 0xE0001FD0) - Data: 04 00 00 00 00 00 00 00 00 00 00 00 00 00 00 00 ...  returns 0x00 (0002ms, 138434ms total)
T09D0 13449:930 JLINK_ReadMemU32(0xE00FF008, 0x0001 Items, ...) -- CPU is running -- CPU_ReadMem(4 bytes @ 0xE00FF008) - Data: 03 30 F0 FF  returns 0x01 (0002ms, 138436ms total)
T09D0 13449:932 JLINK_ReadMem (0xE0002FF0, 0x0010 Bytes, ...) -- CPU is running -- CPU_ReadMem(16 bytes @ 0xE0002FF0) - Data: 0D 00 00 00 E0 00 00 00 05 00 00 00 B1 00 00 00  returns 0x00 (0003ms, 138439ms total)
T09D0 13449:935 JLINK_ReadMem (0xE0002FD0, 0x0020 Bytes, ...) -- CPU is running -- CPU_ReadMem(32 bytes @ 0xE0002FD0) - Data: 04 00 00 00 00 00 00 00 00 00 00 00 00 00 00 00 ...  returns 0x00 (0008ms, 138447ms total)
T09D0 13449:943 JLINK_ReadMemU32(0xE00FF00C, 0x0001 Items, ...) -- CPU is running -- CPU_ReadMem(4 bytes @ 0xE00FF00C) - Data: 03 10 F0 FF  returns 0x01 (0003ms, 138450ms total)
T09D0 13449:946 JLINK_ReadMem (0xE0000FF0, 0x0010 Bytes, ...) -- CPU is running -- CPU_ReadMem(16 bytes @ 0xE0000FF0) - Data: 0D 00 00 00 E0 00 00 00 05 00 00 00 B1 00 00 00  returns 0x00 (0002ms, 138452ms total)
T09D0 13449:948 JLINK_ReadMem (0xE0000FD0, 0x0020 Bytes, ...) -- CPU is running -- CPU_ReadMem(32 bytes @ 0xE0000FD0) - Data: 04 00 00 00 00 00 00 00 00 00 00 00 00 00 00 00 ...  returns 0x00 (0004ms, 138456ms total)
T09D0 13449:952 JLINK_ReadMemU32(0xE00FF010, 0x0001 Items, ...) -- CPU is running -- CPU_ReadMem(4 bytes @ 0xE00FF010) - Data: 03 10 F4 FF  returns 0x01 (0003ms, 138459ms total)
T09D0 13449:955 JLINK_ReadMem (0xE0040FF0, 0x0010 Bytes, ...) -- CPU is running -- CPU_ReadMem(16 bytes @ 0xE0040FF0) - Data: 0D 00 00 00 90 00 00 00 05 00 00 00 B1 00 00 00  returns 0x00 (0002ms, 138461ms total)
T09D0 13449:957 JLINK_ReadMem (0xE0040FD0, 0x0020 Bytes, ...) -- CPU is running -- CPU_ReadMem(32 bytes @ 0xE0040FD0) - Data: 04 00 00 00 00 00 00 00 00 00 00 00 00 00 00 00 ...  returns 0x00 (0010ms, 138471ms total)
T09D0 13449:967 JLINK_ReadMemU32(0xE00FF014, 0x0001 Items, ...) -- CPU is running -- CPU_ReadMem(4 bytes @ 0xE00FF014) - Data: 02 20 F4 FF  returns 0x01 (0004ms, 138475ms total)
T09D0 13449:971 JLINK_ReadMemU32(0xE00FF018, 0x0001 Items, ...) -- CPU is running -- CPU_ReadMem(4 bytes @ 0xE00FF018) - Data: 00 00 00 00  returns 0x01 (0002ms, 138477ms total)
T09D0 13449:973 JLINK_ReadMem (0xE0001000, 0x0004 Bytes, ...) -- CPU is running -- CPU_ReadMem(4 bytes @ 0xE0001000) - Data: 01 00 00 40  returns 0x00 (0003ms, 138480ms total)
T09D0 13449:976 JLINK_ReadMem (0xE0001000, 0x0004 Bytes, ...) -- CPU is running -- CPU_ReadMem(4 bytes @ 0xE0001000) - Data: 01 00 00 40  returns 0x00 (0002ms, 138482ms total)
T09D0 13449:978 JLINK_ReadMem (0xE0001028, 0x0004 Bytes, ...) -- CPU is running -- CPU_ReadMem(4 bytes @ 0xE0001028) - Data: 00 00 00 00  returns 0x00 (0088ms, 138570ms total)
T09D0 13450:066 JLINK_WriteMem(0xE0001028, 0x0004 Bytes, ...) - Data: 00 01 00 00 -- CPU is running -- CPU_WriteMem(4 bytes @ 0xE0001028)  returns 0x04 (0061ms, 138631ms total)
T09D0 13450:127 JLINK_ReadMem (0xE0001028, 0x0004 Bytes, ...) -- CPU is running -- CPU_ReadMem(4 bytes @ 0xE0001028) - Data: 00 00 00 00  returns 0x00 (0004ms, 138635ms total)
T09D0 13450:131 JLINK_ReadMem (0xE0001038, 0x0004 Bytes, ...) -- CPU is running -- CPU_ReadMem(4 bytes @ 0xE0001038) - Data: 00 02 00 00  returns 0x00 (0002ms, 138637ms total)
T09D0 13450:133 JLINK_WriteMem(0xE0001038, 0x0004 Bytes, ...) - Data: 00 03 00 00 -- CPU is running -- CPU_WriteMem(4 bytes @ 0xE0001038)  returns 0x04 (0002ms, 138639ms total)
T09D0 13450:135 JLINK_ReadMem (0xE0001038, 0x0004 Bytes, ...) -- CPU is running -- CPU_ReadMem(4 bytes @ 0xE0001038) - Data: 00 03 00 00  returns 0x00 (0002ms, 138641ms total)
T09D0 13450:137 JLINK_ReadMem (0xE0001048, 0x0004 Bytes, ...) -- CPU is running -- CPU_ReadMem(4 bytes @ 0xE0001048) - Data: 00 00 00 00  returns 0x00 (0002ms, 138643ms total)
T09D0 13450:139 JLINK_WriteMem(0xE0001048, 0x0004 Bytes, ...) - Data: 00 01 00 00 -- CPU is running -- CPU_WriteMem(4 bytes @ 0xE0001048)  returns 0x04 (0005ms, 138648ms total)
T09D0 13450:144 JLINK_ReadMem (0xE0001048, 0x0004 Bytes, ...) -- CPU is running -- CPU_ReadMem(4 bytes @ 0xE0001048) - Data: 00 00 00 00  returns 0x00 (0002ms, 138650ms total)
T09D0 13450:146 JLINK_ReadMem (0xE0001058, 0x0004 Bytes, ...) -- CPU is running -- CPU_ReadMem(4 bytes @ 0xE0001058) - Data: 00 00 00 00  returns 0x00 (0002ms, 138652ms total)
T09D0 13450:148 JLINK_WriteMem(0xE0001058, 0x0004 Bytes, ...) - Data: 00 01 00 00 -- CPU is running -- CPU_WriteMem(4 bytes @ 0xE0001058)  returns 0x04 (0007ms, 138659ms total)
T09D0 13450:155 JLINK_ReadMem (0xE0001058, 0x0004 Bytes, ...) -- CPU is running -- CPU_ReadMem(4 bytes @ 0xE0001058) - Data: 00 00 00 00  returns 0x00 (0003ms, 138662ms total)
T09D0 13450:158 JLINK_ReadMem (0xE0001024, 0x0004 Bytes, ...) -- CPU is running -- CPU_ReadMem(4 bytes @ 0xE0001024) - Data: 00 00 00 00  returns 0x00 (0003ms, 138665ms total)
T09D0 13450:161 JLINK_WriteMem(0xE0001024, 0x0004 Bytes, ...) - Data: 1F 00 00 00 -- CPU is running -- CPU_WriteMem(4 bytes @ 0xE0001024)  returns 0x04 (0002ms, 138667ms total)
T09D0 13450:163 JLINK_ReadMem (0xE0001024, 0x0004 Bytes, ...) -- CPU is running -- CPU_ReadMem(4 bytes @ 0xE0001024) - Data: 0F 00 00 00  returns 0x00 (0002ms, 138669ms total)
T09D0 13450:165 JLINK_ReadMem (0xE0001034, 0x0004 Bytes, ...) -- CPU is running -- CPU_ReadMem(4 bytes @ 0xE0001034) - Data: 00 00 00 00  returns 0x00 (0002ms, 138671ms total)
T09D0 13450:167 JLINK_WriteMem(0xE0001034, 0x0004 Bytes, ...) - Data: 1F 00 00 00 -- CPU is running -- CPU_WriteMem(4 bytes @ 0xE0001034)  returns 0x04 (0002ms, 138673ms total)
T09D0 13450:169 JLINK_ReadMem (0xE0001034, 0x0004 Bytes, ...) -- CPU is running -- CPU_ReadMem(4 bytes @ 0xE0001034) - Data: 0F 00 00 00  returns 0x00 (0003ms, 138676ms total)
T09D0 13450:172 JLINK_ReadMem (0xE0001044, 0x0004 Bytes, ...) -- CPU is running -- CPU_ReadMem(4 bytes @ 0xE0001044) - Data: 00 00 00 00  returns 0x00 (0002ms, 138678ms total)
T09D0 13450:174 JLINK_WriteMem(0xE0001044, 0x0004 Bytes, ...) - Data: 1F 00 00 00 -- CPU is running -- CPU_WriteMem(4 bytes @ 0xE0001044)  returns 0x04 (0002ms, 138680ms total)
T09D0 13450:176 JLINK_ReadMem (0xE0001044, 0x0004 Bytes, ...) -- CPU is running -- CPU_ReadMem(4 bytes @ 0xE0001044) - Data: 0F 00 00 00  returns 0x00 (0002ms, 138682ms total)
T09D0 13450:178 JLINK_ReadMem (0xE0001054, 0x0004 Bytes, ...) -- CPU is running -- CPU_ReadMem(4 bytes @ 0xE0001054) - Data: 00 00 00 00  returns 0x00 (0003ms, 138685ms total)
T09D0 13450:181 JLINK_WriteMem(0xE0001054, 0x0004 Bytes, ...) - Data: 1F 00 00 00 -- CPU is running -- CPU_WriteMem(4 bytes @ 0xE0001054)  returns 0x04 (0002ms, 138687ms total)
T09D0 13450:183 JLINK_ReadMem (0xE0001054, 0x0004 Bytes, ...) -- CPU is running -- CPU_ReadMem(4 bytes @ 0xE0001054) - Data: 0F 00 00 00  returns 0x00 (0003ms, 138690ms total)
T09D0 13450:186 JLINK_ReadMem (0xE0001028, 0x0004 Bytes, ...) -- CPU is running -- CPU_ReadMem(4 bytes @ 0xE0001028) - Data: 00 00 00 00  returns 0x00 (0002ms, 138692ms total)
T09D0 13450:188 JLINK_ReadMem (0xE0001038, 0x0004 Bytes, ...) -- CPU is running -- CPU_ReadMem(4 bytes @ 0xE0001038) - Data: 00 03 00 00  returns 0x00 (0003ms, 138695ms total)
T09D0 13450:191 JLINK_ReadMem (0xE0001048, 0x0004 Bytes, ...) -- CPU is running -- CPU_ReadMem(4 bytes @ 0xE0001048) - Data: 00 00 00 00  returns 0x00 (0002ms, 138697ms total)
T09D0 13450:193 JLINK_ReadMem (0xE0001058, 0x0004 Bytes, ...) -- CPU is running -- CPU_ReadMem(4 bytes @ 0xE0001058) - Data: 00 00 00 00  returns 0x00 (0002ms, 138699ms total)
T09D0 13450:195 JLINK_WriteMem(0xE0001020, 0x0004 Bytes, ...) - Data: 00 00 00 00 -- CPU is running -- CPU_WriteMem(4 bytes @ 0xE0001020)  returns 0x04 (0002ms, 138701ms total)
T09D0 13450:197 JLINK_WriteMem(0xE0001024, 0x0004 Bytes, ...) - Data: 00 00 00 00 -- CPU is running -- CPU_WriteMem(4 bytes @ 0xE0001024)  returns 0x04 (0006ms, 138707ms total)
T09D0 13450:203 JLINK_WriteMem(0xE0001028, 0x0004 Bytes, ...) - Data: 00 00 00 00 -- CPU is running -- CPU_WriteMem(4 bytes @ 0xE0001028)  returns 0x04 (0003ms, 138710ms total)
T09D0 13450:206 JLINK_WriteMem(0xE0001030, 0x0004 Bytes, ...) - Data: 00 00 00 00 -- CPU is running -- CPU_WriteMem(4 bytes @ 0xE0001030)  returns 0x04 (0002ms, 138712ms total)
T09D0 13450:208 JLINK_WriteMem(0xE0001034, 0x0004 Bytes, ...) - Data: 00 00 00 00 -- CPU is running -- CPU_WriteMem(4 bytes @ 0xE0001034)  returns 0x04 (0003ms, 138715ms total)
T09D0 13450:211 JLINK_WriteMem(0xE0001038, 0x0004 Bytes, ...) - Data: 00 00 00 00 -- CPU is running -- CPU_WriteMem(4 bytes @ 0xE0001038)  returns 0x04 (0003ms, 138718ms total)
T09D0 13450:214 JLINK_WriteMem(0xE0001040, 0x0004 Bytes, ...) - Data: 00 00 00 00 -- CPU is running -- CPU_WriteMem(4 bytes @ 0xE0001040)  returns 0x04 (0003ms, 138721ms total)
T09D0 13450:217 JLINK_WriteMem(0xE0001044, 0x0004 Bytes, ...) - Data: 00 00 00 00 -- CPU is running -- CPU_WriteMem(4 bytes @ 0xE0001044)  returns 0x04 (0002ms, 138723ms total)
T09D0 13450:219 JLINK_WriteMem(0xE0001048, 0x0004 Bytes, ...) - Data: 00 00 00 00 -- CPU is running -- CPU_WriteMem(4 bytes @ 0xE0001048)  returns 0x04 (0002ms, 138725ms total)
T09D0 13450:221 JLINK_WriteMem(0xE0001050, 0x0004 Bytes, ...) - Data: 00 00 00 00 -- CPU is running -- CPU_WriteMem(4 bytes @ 0xE0001050)  returns 0x04 (0002ms, 138727ms total)
T09D0 13450:223 JLINK_WriteMem(0xE0001054, 0x0004 Bytes, ...) - Data: 00 00 00 00 -- CPU is running -- CPU_WriteMem(4 bytes @ 0xE0001054)  returns 0x04 (0002ms, 138729ms total)
T09D0 13450:225 JLINK_WriteMem(0xE0001058, 0x0004 Bytes, ...) - Data: 00 00 00 00 -- CPU is running -- CPU_WriteMem(4 bytes @ 0xE0001058)  returns 0x04 (0002ms, 138731ms total)
T09D0 13450:227 JLINK_Halt()  returns 0x00 (0012ms, 138743ms total)
T09D0 13450:239 JLINK_WriteMem(0x400E0A04, 0x0004 Bytes, ...) - Data: 0B 01 00 5A -- CPU_WriteMem(4 bytes @ 0x400E0A04)  returns 0x04 (0004ms, 138747ms total)
T09D0 13450:243 JLINK_ReadMem (0x400E0A08, 0x0004 Bytes, ...) -- CPU_ReadMem(4 bytes @ 0x400E0A08) - Data: 01 00 00 00  returns 0x00 (0002ms, 138749ms total)
T09D0 13450:245 JLINK_WriteMem(0x400E0A04, 0x0004 Bytes, ...) - Data: 0C 02 00 5A -- CPU_WriteMem(4 bytes @ 0x400E0A04)  returns 0x04 (0002ms, 138751ms total)
T09D0 13450:247 JLINK_ReadMem (0x400E0A08, 0x0004 Bytes, ...) -- CPU_ReadMem(4 bytes @ 0x400E0A08) - Data: 01 00 00 00  returns 0x00 (0002ms, 138753ms total)
T09D0 13450:249 JLINK_Reset() -- CPU_ReadMem(16 bytes @ 0x20000000) -- CPU_WriteMem(16 bytes @ 0x20000000) -- CPU_ReadMem(4 bytes @ 0xE000EDFC) -- CPU_WriteMem(4 bytes @ 0xE000EDFC) -- CPU_ReadMem(4 bytes @ 0xE0001000) -- CPU_WriteMem(4 bytes @ 0xE000EDFC) -- CPU_WriteMem(16 bytes @ 0x20000000) -- CPU_WriteMem(4 bytes @ 0xE0002000) -- CPU_ReadMem(4 bytes @ 0xE000EDFC) -- CPU_ReadMem(4 bytes @ 0xE0001000) (0064ms, 138817ms total)
T09D0 13450:347 JLINK_JTAG_GetDeviceID(DeviceIndex = 0)  returns 0x4BA00477 (0000ms, 138817ms total)
T09D0 13450:347 JLINK_ReadMemU32(0x400E0740, 0x0001 Items, ...) -- CPU_ReadMem(4 bytes @ 0x400E0740) - Data: E0 0E A7 29  returns 0x01 (0012ms, 138829ms total)
T09D0 13450:359 JLINK_ReadMemU32(0x400E0744, 0x0001 Items, ...) -- CPU_ReadMem(4 bytes @ 0x400E0744) - Data: 00 00 00 00  returns 0x01 (0003ms, 138832ms total)
T0CDC 13450:362 JLINK_IsHalted()  returns TRUE (0000ms, 138832ms total)
T09D0 13450:362 JLINK_WriteMem(0x400E0A04, 0x0004 Bytes, ...) - Data: 05 00 00 5A -- CPU_WriteMem(4 bytes @ 0x400E0A04)  returns 0x04 (0002ms, 138834ms total)
T0CDC 13450:364 JLINK_GetMOEs(...) -- CPU_ReadMem(4 bytes @ 0xE000ED30) -- CPU_WriteMem(4 bytes @ 0xE000ED30)  returns 0x01 (0009ms, 138843ms total)
T09D0 13450:373 JLINK_WriteMem(0x400E0C04, 0x0004 Bytes, ...) - Data: 05 00 00 5A -- CPU_WriteMem(4 bytes @ 0x400E0C04)  returns 0x04 (0002ms, 138845ms total)
T0CDC 13450:375 JLINK_ReadReg(R15 (PC))  returns 0x00401298 (0000ms, 138845ms total)
T09D0 13450:375 JLINK_ReadMem (0x400E0A08, 0x0004 Bytes, ...) -- CPU_ReadMem(4 bytes @ 0x400E0A08) - Data: 00 00 00 00  returns 0x00 (0002ms, 138847ms total)
T09D0 13450:378 JLINK_ReadMem (0x400E0A08, 0x0004 Bytes, ...) -- CPU_ReadMem(4 bytes @ 0x400E0A08) - Data: 00 00 00 00  returns 0x00 (0001ms, 138848ms total)
T09D0 13450:383 JLINK_ReadMem (0x400E0A08, 0x0004 Bytes, ...) -- CPU_ReadMem(4 bytes @ 0x400E0A08) - Data: 00 00 00 00  returns 0x00 (0003ms, 138851ms total)
T09D0 13450:405 JLINK_ReadMem (0x400E0A08, 0x0004 Bytes, ...) -- CPU_ReadMem(4 bytes @ 0x400E0A08) - Data: 00 00 00 00  returns 0x00 (0002ms, 138853ms total)
T09D0 13450:472 JLINK_ReadMem (0x400E0A08, 0x0004 Bytes, ...) -- CPU_ReadMem(4 bytes @ 0x400E0A08) - Data: 00 00 00 00  returns 0x00 (0005ms, 138858ms total)
T0CDC 13450:576 JLINK_IsHalted()  returns TRUE (0000ms, 138858ms total)
T09D0 13450:734 JLINK_ReadMem (0x400E0A08, 0x0004 Bytes, ...) -- CPU_ReadMem(4 bytes @ 0x400E0A08) - Data: 00 00 00 00  returns 0x00 (0019ms, 138877ms total)
T0CDC 13450:776 JLINK_IsHalted()  returns TRUE (0000ms, 138877ms total)
T0CDC 13450:977 JLINK_IsHalted()  returns TRUE (0012ms, 138889ms total)
T0CDC 13451:190 JLINK_IsHalted()  returns TRUE (0000ms, 138877ms total)
T0CDC 13451:410 JLINK_IsHalted()  returns TRUE (0001ms, 138878ms total)
T0CDC 13451:612 JLINK_IsHalted()  returns TRUE (0016ms, 138893ms total)
T09D0 13451:755 JLINK_ReadMem (0x400E0A08, 0x0004 Bytes, ...) -- CPU_ReadMem(4 bytes @ 0x400E0A08) - Data: 00 00 00 00  returns 0x00 (0008ms, 138885ms total)
T09D0 13451:764 JLINK_ReadMem (0x400E0C08, 0x0004 Bytes, ...) -- CPU_ReadMem(4 bytes @ 0x400E0C08) - Data: 00 00 00 00  returns 0x00 (0002ms, 138887ms total)
T09D0 13451:767 JLINK_ReadMem (0x400E0C08, 0x0004 Bytes, ...) -- CPU_ReadMem(4 bytes @ 0x400E0C08) - Data: 00 00 00 00  returns 0x00 (0003ms, 138890ms total)
T09D0 13451:774 JLINK_ReadMem (0x400E0C08, 0x0004 Bytes, ...) -- CPU_ReadMem(4 bytes @ 0x400E0C08) - Data: 00 00 00 00  returns 0x00 (0002ms, 138892ms total)
T09D0 13451:794 JLINK_ReadMem (0x400E0C08, 0x0004 Bytes, ...) -- CPU_ReadMem(4 bytes @ 0x400E0C08) - Data: 00 00 00 00  returns 0x00 (0003ms, 138895ms total)
T0CDC 13451:829 JLINK_IsHalted()  returns TRUE (0000ms, 138895ms total)
T09D0 13451:862 JLINK_ReadMem (0x400E0C08, 0x0004 Bytes, ...) -- CPU_ReadMem(4 bytes @ 0x400E0C08) - Data: 00 00 00 00  returns 0x00 (0005ms, 138900ms total)
T0CDC 13452:029 JLINK_IsHalted()  returns TRUE (0013ms, 138913ms total)
T09D0 13452:126 JLINK_ReadMem (0x400E0C08, 0x0004 Bytes, ...) -- CPU_ReadMem(4 bytes @ 0x400E0C08) - Data: 00 00 00 00  returns 0x00 (0003ms, 138903ms total)
T0CDC 13452:243 JLINK_IsHalted()  returns TRUE (0020ms, 138923ms total)
T0CDC 13452:464 JLINK_IsHalted()  returns TRUE (0000ms, 138903ms total)
T0CDC 13452:666 JLINK_IsHalted()  returns TRUE (0000ms, 138903ms total)
T0CDC 13452:867 JLINK_IsHalted()  returns TRUE (0014ms, 138917ms total)
T0CDC 13453:082 JLINK_IsHalted()  returns TRUE (0010ms, 138913ms total)
T09D0 13453:137 JLINK_ReadMem (0x400E0C08, 0x0004 Bytes, ...) -- CPU_ReadMem(4 bytes @ 0x400E0C08) - Data: 00 00 00 00  returns 0x00 (0008ms, 138911ms total)
T09D0 13453:148 JLINK_ReadMem (0x400E0A08, 0x0004 Bytes, ...) -- CPU_ReadMem(4 bytes @ 0x400E0A08) - Data: 00 00 00 00  returns 0x00 (0005ms, 138916ms total)
T09D0 13453:154 JLINK_ReadMem (0x400E0A08, 0x0004 Bytes, ...) -- CPU_ReadMem(4 bytes @ 0x400E0A08) - Data: 00 00 00 00  returns 0x00 (0002ms, 138918ms total)
T09D0 13453:160 JLINK_ReadMem (0x400E0A08, 0x0004 Bytes, ...) -- CPU_ReadMem(4 bytes @ 0x400E0A08) - Data: 00 00 00 00  returns 0x00 (0003ms, 138921ms total)
T09D0 13453:179 JLINK_ReadMem (0x400E0A08, 0x0004 Bytes, ...) -- CPU_ReadMem(4 bytes @ 0x400E0A08) - Data: 00 00 00 00  returns 0x00 (0004ms, 138925ms total)
T09D0 13453:247 JLINK_ReadMem (0x400E0A08, 0x0004 Bytes, ...) -- CPU_ReadMem(4 bytes @ 0x400E0A08) - Data: 00 00 00 00  returns 0x00 (0010ms, 138935ms total)
T0CDC 13453:292 JLINK_IsHalted()  returns TRUE (0000ms, 138935ms total)
T0CDC 13453:493 JLINK_IsHalted()  returns TRUE (0024ms, 138959ms total)
T09D0 13453:517 JLINK_ReadMem (0x400E0A08, 0x0004 Bytes, ...) -- CPU_ReadMem(4 bytes @ 0x400E0A08) - Data: 00 00 00 00  returns 0x00 (0004ms, 138939ms total)
T0CDC 13453:718 JLINK_IsHalted()  returns TRUE (0000ms, 138939ms total)
T0CDC 13453:918 JLINK_IsHalted()  returns TRUE (0000ms, 138939ms total)
T0CDC 13454:119 JLINK_IsHalted()  returns TRUE (0014ms, 138953ms total)
T0CDC 13454:334 JLINK_IsHalted()  returns TRUE (0000ms, 138939ms total)
T09D0 13454:521 JLINK_ReadMem (0x400E0A08, 0x0004 Bytes, ...) -- CPU_ReadMem(4 bytes @ 0x400E0A08) - Data: 00 00 00 00  returns 0x00 (0007ms, 138946ms total)
T09D0 13454:528 JLINK_ReadMem (0x400E0C08, 0x0004 Bytes, ...) -- CPU_ReadMem(4 bytes @ 0x400E0C08) - Data: 00 00 00 00  returns 0x00 (0002ms, 138948ms total)
T09D0 13454:531 JLINK_ReadMem (0x400E0C08, 0x0004 Bytes, ...) -- CPU_ReadMem(4 bytes @ 0x400E0C08) - Data: 00 00 00 00  returns 0x00 (0001ms, 138949ms total)
T0CDC 13454:534 JLINK_IsHalted()  returns TRUE (0000ms, 138949ms total)
T09D0 13454:536 JLINK_ReadMem (0x400E0C08, 0x0004 Bytes, ...) -- CPU_ReadMem(4 bytes @ 0x400E0C08) - Data: 00 00 00 00  returns 0x00 (0003ms, 138952ms total)
T09D0 13454:555 JLINK_ReadMem (0x400E0C08, 0x0004 Bytes, ...) -- CPU_ReadMem(4 bytes @ 0x400E0C08) - Data: 00 00 00 00  returns 0x00 (0003ms, 138955ms total)
T09D0 13454:623 JLINK_ReadMem (0x400E0C08, 0x0004 Bytes, ...) -- CPU_ReadMem(4 bytes @ 0x400E0C08) - Data: 00 00 00 00  returns 0x00 (0006ms, 138961ms total)
T0CDC 13454:735 JLINK_IsHalted()  returns TRUE (0008ms, 138969ms total)
T09D0 13454:885 JLINK_ReadMem (0x400E0C08, 0x0004 Bytes, ...) -- CPU_ReadMem(4 bytes @ 0x400E0C08) - Data: 01 00 00 00  returns 0x00 (0013ms, 138974ms total)
T09D0 13454:898 JLINK_ReadMem (0x400E0A08, 0x0004 Bytes, ...) -- CPU_ReadMem(4 bytes @ 0x400E0A08) - Data: 01 00 00 00  returns 0x00 (0003ms, 138977ms total)
T0CDC 13454:944 JLINK_IsHalted()  returns TRUE (0000ms, 138977ms total)
T09D0 13454:946 JLINK_ResetPullsRESET(ON) (0000ms, 138977ms total)
T09D0 13454:946 JLINK_ResetNoHalt() >0x2F8 JTAG>TotalIRLen = 4, IRPrint = 0x01 >0x30 JTAG> >0x210 JTAG> >0x70 JTAG> >0x40 JTAG> >0x40 JTAG> >0x40 JTAG> >0x48 JTAG> >0x78 JTAG> >0x40 JTAG> >0x30 JTAG> >0x40 JTAG> >0x40 JTAG> >0x30 JTAG> >0x40 JTAG> >0x48 JTAG>Found Cortex-M4 r0p1, Little endian. -- CPU_WriteMem(4 bytes @ 0xE0002000) -- CPU_ReadMem(4 bytes @ 0xE000EDF0) -- CPU_ReadMem(4 bytes @ 0xE0002000)FPUnit: 6 code (BP) slots and 2 literal slots -- CPU_ReadMem(4 bytes @ 0xE000EDFC)
 -- CPU_ReadMem(4 bytes @ 0xE0001000) -- CPU_ReadMem(4 bytes @ 0xE000ED88) -- CPU_WriteMem(4 bytes @ 0xE000ED88) -- CPU_ReadMem(4 bytes @ 0xE000ED88) -- CPU_WriteMem(4 bytes @ 0xE000ED88)CoreSight components:ROMTbl 0 @ E00FF000 -- CPU_ReadMem(16 bytes @ 0xE00FF000) -- CPU_ReadMem(16 bytes @ 0xE000EFF0) -- CPU_ReadMem(16 bytes @ 0xE000EFE0)ROMTbl 0 [0]: FFF0F000, CID: B105E00D, PID: 000BB000 SCS -- CPU_WriteMem(4 bytes @ 0xE0001000) -- CPU_ReadMem(16 bytes @ 0xE0001FF0)
 -- CPU_ReadMem(16 bytes @ 0xE0001FE0)ROMTbl 0 [1]: FFF02000, CID: B105E00D, PID: 003BB002 DWT -- CPU_ReadMem(16 bytes @ 0xE0002FF0) -- CPU_ReadMem(16 bytes @ 0xE0002FE0)ROMTbl 0 [2]: FFF03000, CID: B105E00D, PID: 002BB003 FPB -- CPU_ReadMem(16 bytes @ 0xE0000FF0) -- CPU_ReadMem(16 bytes @ 0xE0000FE0)ROMTbl 0 [3]: FFF01000, CID: B105E00D, PID: 003BB001 ITM -- CPU_ReadMem(16 bytes @ 0xE00FF010) -- CPU_ReadMem(16 bytes @ 0xE0040FF0) -- CPU_ReadMem(16 bytes @ 0xE0040FE0)
ROMTbl 0 [4]: FFF41000, CID: B105900D, PID: 000BB9A1 TPIU
                JLINK_Reset() -- CPU_ReadMem(16 bytes @ 0x20000000) -- CPU_WriteMem(16 bytes @ 0x20000000) -- CPU_ReadMem(4 bytes @ 0xE000EDFC) -- CPU_WriteMem(4 bytes @ 0xE000EDFC) -- CPU_ReadMem(4 bytes @ 0xE0001000) -- CPU_WriteMem(4 bytes @ 0xE0001004) -- CPU_WriteMem(4 bytes @ 0xE000EDFC) -- CPU_WriteMem(16 bytes @ 0x20000000) -- CPU_WriteMem(4 bytes @ 0xE0002000) -- CPU_ReadMem(4 bytes @ 0xE000EDFC) -- CPU_ReadMem(4 bytes @ 0xE0001000) (0070ms, 0070ms total)
                JLINK_Go() -- CPU_ReadMem(4 bytes @ 0xE0001000) -- CPU_WriteMem(4 bytes @ 0xE0001004) (0010ms, 0080ms total)
               (0189ms, 139166ms total)
T09D0 13455:137 JLINK_ExecCommand("ProjectFile = C:\Users\rafa\Documents\Atmel Studio\7.0\Timer-Counter\Timer-Counter\jlink.config", ...)  returns 0x00 (0000ms, 139166ms total)
T09D0 13455:156 JLINK_ExecCommand("Device = AT91SAM4SD32C", ...)Device "ATSAM4SD32C" selected.  returns 0x00 (0001ms, 139167ms total)
T09D0 13455:157 JLINK_TIF_Select(JLINKARM_TIF_JTAG)  returns 0x00 (0000ms, 139167ms total)
T09D0 13455:157 JLINK_GetIdData(...) ScanLen=4 NumDevices=1 aId[0]=0x4BA00477 aIrRead[0]=0 aScanLen[0]=0 aScanRead[0]=0 (0000ms, 139167ms total)
T09D0 13455:157 JLINK_ConfigJTAG(IRPre = 0, DRPre = 0) (0000ms, 139167ms total)
T09D0 13455:157 JLINK_SetSpeed(4000) (0002ms, 139169ms total)
T09D0 13455:159 JLINK_ResetPullsRESET(OFF) (0000ms, 139169ms total)
T09D0 13455:159 JLINK_Connect() >0x2F8 JTAG>TotalIRLen = 4, IRPrint = 0x01 >0x30 JTAG> >0x210 JTAG> >0x70 JTAG> >0x40 JTAG> >0x40 JTAG> >0x40 JTAG> >0x48 JTAG> >0x78 JTAG> >0x40 JTAG> >0x30 JTAG> >0x40 JTAG> >0x40 JTAG> >0x30 JTAG> >0x40 JTAG> >0x48 JTAG>Found Cortex-M4 r0p1, Little endian. -- CPU_WriteMem(4 bytes @ 0xE0002000) -- CPU_ReadMem(4 bytes @ 0xE000EDF0) -- CPU_ReadMem(4 bytes @ 0xE0002000)FPUnit: 6 code (BP) slots and 2 literal slots -- CPU_ReadMem(4 bytes @ 0xE000EDFC)
 -- CPU_ReadMem(4 bytes @ 0xE0001000) -- CPU_WriteMem(4 bytes @ 0xE0001000) -- CPU_ReadMem(4 bytes @ 0xE000ED88) -- CPU_WriteMem(4 bytes @ 0xE000ED88) -- CPU_ReadMem(4 bytes @ 0xE000ED88) -- CPU_WriteMem(4 bytes @ 0xE000ED88)CoreSight components:ROMTbl 0 @ E00FF000 -- CPU_ReadMem(16 bytes @ 0xE00FF000) -- CPU_ReadMem(16 bytes @ 0xE000EFF0) -- CPU_ReadMem(16 bytes @ 0xE000EFE0)ROMTbl 0 [0]: FFF0F000, CID: B105E00D, PID: 000BB000 SCS -- CPU_ReadMem(16 bytes @ 0xE0001FF0)
 -- CPU_ReadMem(16 bytes @ 0xE0001FE0)ROMTbl 0 [1]: FFF02000, CID: B105E00D, PID: 003BB002 DWT -- CPU_ReadMem(16 bytes @ 0xE0002FF0) -- CPU_ReadMem(16 bytes @ 0xE0002FE0)ROMTbl 0 [2]: FFF03000, CID: B105E00D, PID: 002BB003 FPB -- CPU_ReadMem(16 bytes @ 0xE0000FF0) -- CPU_ReadMem(16 bytes @ 0xE0000FE0)ROMTbl 0 [3]: FFF01000, CID: B105E00D, PID: 003BB001 ITM -- CPU_ReadMem(16 bytes @ 0xE00FF010) -- CPU_ReadMem(16 bytes @ 0xE0040FF0) -- CPU_ReadMem(16 bytes @ 0xE0040FE0)
ROMTbl 0 [4]: FFF41000, CID: B105900D, PID: 000BB9A1 TPIU  returns 0x00 (0102ms, 139271ms total)
T09D0 13455:261 JLINK_WriteMem(0xE0001020, 0x0004 Bytes, ...) - Data: 00 00 00 00 -- CPU is running -- CPU_WriteMem(4 bytes @ 0xE0001020)  returns 0x04 (0004ms, 139275ms total)
T09D0 13455:265 JLINK_WriteMem(0xE0001024, 0x0004 Bytes, ...) - Data: 00 00 00 00 -- CPU is running -- CPU_WriteMem(4 bytes @ 0xE0001024)  returns 0x04 (0002ms, 139277ms total)
T09D0 13455:267 JLINK_WriteMem(0xE0001028, 0x0004 Bytes, ...) - Data: 00 00 00 00 -- CPU is running -- CPU_WriteMem(4 bytes @ 0xE0001028)  returns 0x04 (0002ms, 139279ms total)
T09D0 13455:269 JLINK_WriteMem(0xE0001030, 0x0004 Bytes, ...) - Data: 00 00 00 00 -- CPU is running -- CPU_WriteMem(4 bytes @ 0xE0001030)  returns 0x04 (0002ms, 139281ms total)
T09D0 13455:271 JLINK_WriteMem(0xE0001034, 0x0004 Bytes, ...) - Data: 00 00 00 00 -- CPU is running -- CPU_WriteMem(4 bytes @ 0xE0001034)  returns 0x04 (0003ms, 139284ms total)
T09D0 13455:274 JLINK_WriteMem(0xE0001038, 0x0004 Bytes, ...) - Data: 00 00 00 00 -- CPU is running -- CPU_WriteMem(4 bytes @ 0xE0001038)  returns 0x04 (0003ms, 139287ms total)
T09D0 13455:277 JLINK_WriteMem(0xE0001040, 0x0004 Bytes, ...) - Data: 00 00 00 00 -- CPU is running -- CPU_WriteMem(4 bytes @ 0xE0001040)  returns 0x04 (0003ms, 139290ms total)
T09D0 13455:280 JLINK_WriteMem(0xE0001044, 0x0004 Bytes, ...) - Data: 00 00 00 00 -- CPU is running -- CPU_WriteMem(4 bytes @ 0xE0001044)  returns 0x04 (0004ms, 139294ms total)
T09D0 13455:284 JLINK_WriteMem(0xE0001048, 0x0004 Bytes, ...) - Data: 00 00 00 00 -- CPU is running -- CPU_WriteMem(4 bytes @ 0xE0001048)  returns 0x04 (0002ms, 139296ms total)
T09D0 13455:286 JLINK_WriteMem(0xE0001050, 0x0004 Bytes, ...) - Data: 00 00 00 00 -- CPU is running -- CPU_WriteMem(4 bytes @ 0xE0001050)  returns 0x04 (0002ms, 139298ms total)
T09D0 13455:288 JLINK_WriteMem(0xE0001054, 0x0004 Bytes, ...) - Data: 00 00 00 00 -- CPU is running -- CPU_WriteMem(4 bytes @ 0xE0001054)  returns 0x04 (0002ms, 139300ms total)
T09D0 13455:290 JLINK_WriteMem(0xE0001058, 0x0004 Bytes, ...) - Data: 00 00 00 00 -- CPU is running -- CPU_WriteMem(4 bytes @ 0xE0001058)  returns 0x04 (0002ms, 139302ms total)
T09D0 13455:292 JLINK_Halt()  returns 0x00 (0008ms, 139310ms total)
T09D0 13455:300 JLINK_WriteMem(0x400E0A04, 0x0004 Bytes, ...) - Data: 0B 01 00 5A -- CPU_WriteMem(4 bytes @ 0x400E0A04)  returns 0x04 (0002ms, 139312ms total)
T09D0 13455:302 JLINK_ReadMem (0x400E0A08, 0x0004 Bytes, ...) -- CPU_ReadMem(4 bytes @ 0x400E0A08) - Data: 01 00 00 00  returns 0x00 (0003ms, 139315ms total)
T09D0 13455:305 JLINK_WriteMem(0x400E0A04, 0x0004 Bytes, ...) - Data: 0C 02 00 5A -- CPU_WriteMem(4 bytes @ 0x400E0A04)  returns 0x04 (0003ms, 139318ms total)
T09D0 13455:308 JLINK_ReadMem (0x400E0A08, 0x0004 Bytes, ...) -- CPU_ReadMem(4 bytes @ 0x400E0A08) - Data: 01 00 00 00  returns 0x00 (0002ms, 139320ms total)
T09D0 13455:310 JLINK_Reset() -- CPU_ReadMem(16 bytes @ 0x20000000) -- CPU_WriteMem(16 bytes @ 0x20000000) -- CPU_ReadMem(4 bytes @ 0xE000EDFC) -- CPU_WriteMem(4 bytes @ 0xE000EDFC) -- CPU_ReadMem(4 bytes @ 0xE0001000) -- CPU_WriteMem(4 bytes @ 0xE000EDFC) -- CPU_WriteMem(16 bytes @ 0x20000000) -- CPU_WriteMem(4 bytes @ 0xE0002000) -- CPU_ReadMem(4 bytes @ 0xE000EDFC) -- CPU_ReadMem(4 bytes @ 0xE0001000) (0057ms, 139377ms total)
T09D0 13455:391 JLINK_JTAG_GetDeviceID(DeviceIndex = 0)  returns 0x4BA00477 (0000ms, 139377ms total)
T09D0 13455:391 JLINK_ReadMemU32(0x400E0740, 0x0001 Items, ...) -- CPU_ReadMem(4 bytes @ 0x400E0740) - Data: E0 0E A7 29  returns 0x01 (0057ms, 139434ms total)
T09D0 13455:448 JLINK_ReadMemU32(0x400E0744, 0x0001 Items, ...) -- CPU_ReadMem(4 bytes @ 0x400E0744) - Data: 00 00 00 00  returns 0x01 (0007ms, 139441ms total)
T0CA8 13455:462 JLINK_IsHalted()  returns TRUE (0000ms, 139441ms total)
T0CA8 13455:462 JLINK_GetMOEs(...) -- CPU_ReadMem(4 bytes @ 0xE000ED30) -- CPU_WriteMem(4 bytes @ 0xE000ED30)  returns 0x01 (0029ms, 139470ms total)
T09D0 13455:491 JLINK_BeginDownload(Flags = 0x00) (0000ms, 139470ms total)
T0CA8 13455:491 JLINK_ReadReg(R15 (PC))  returns 0xFFFFFFFE (0000ms, 139470ms total)
T09D0 13455:491 JLINK_WriteMem(0x00400000, 0x1CBC Bytes, ...) - Data: D0 34 00 20 99 12 40 00 61 13 40 00 61 13 40 00 ...  returns 0x1CBC (0001ms, 139471ms total)
T09D0 13455:492 JLINK_WriteMem(0x00401CBC, 0x0430 Bytes, ...) - Data: 00 09 3D 00 01 01 00 00 00 00 00 00 F4 02 00 20 ...  returns 0x430 (0000ms, 139471ms total)
T0CA8 13455:698 JLINK_IsHalted()  returns TRUE (0000ms, 139471ms total)
T0CA8 13455:899 JLINK_IsHalted()  returns TRUE (0008ms, 139479ms total)
T0B54 13455:907 JLINK_Halt()  returns 0x00 (0000ms, 139471ms total)
T0B54 13455:907 JLINK_ReadReg(R15 (PC)) -- -------------------------------------- -- Start of determining dirty areas in flash cache -- End of determining dirty areas -- Start of preparing flash programming -- Calculating RAM usage -- RAM usage = 2884 Bytes -- Preserving registers -- Preparing memory -- Determining CPU clock frequency -- CPU clock frequency: 4140 kHz -- CPU frequency = 4140 kHz -- Preparing target -- Downloading RAMCode -- Using alternate TurboMode RAMCode -- Checking target RAM
 -- Preparing RAMCode -- End of preparing flash programmingCPU is running at low speed (4140 kHz). -- CPU is running at 4140 kHz. -- Start of comparing flash -- Read back was estimated as fastest method -- Comparing range 0x400000 - 0x4021FF (17 Sectors, 8 KB), using multi-block CRC calculation -- CPU is running -- CPU_ReadMem(512 bytes @ 0x00400000) -- CPU is running -- CPU_ReadMem(512 bytes @ 0x00400200) -- CPU is running -- CPU_ReadMem(512 bytes @ 0x00400400) -- CPU is running
 -- CPU_ReadMem(512 bytes @ 0x00400600) -- CPU is running -- CPU_ReadMem(512 bytes @ 0x00400800) -- CPU is running -- CPU_ReadMem(512 bytes @ 0x00400A00) -- CPU is running -- CPU_ReadMem(512 bytes @ 0x00400C00) -- CPU is running -- CPU_ReadMem(512 bytes @ 0x00400E00) -- CPU is running -- CPU_ReadMem(512 bytes @ 0x00401000) -- CPU is running -- CPU_ReadMem(512 bytes @ 0x00401200) -- CPU is running -- CPU_ReadMem(512 bytes @ 0x00401400) -- CPU is running -- CPU_ReadMem(512 bytes @ 0x00401600)
 -- CPU is running -- CPU_ReadMem(512 bytes @ 0x00401800) -- CPU is running -- CPU_ReadMem(512 bytes @ 0x00401A00) -- CPU is running -- CPU_ReadMem(512 bytes @ 0x00401C00) -- CPU is running -- CPU_ReadMem(512 bytes @ 0x00401E00) -- CPU is running -- CPU_ReadMem(512 bytes @ 0x00402000) -- CRC does not match for sectors 0-16 -- End of comparing flash -- Start of erasing sectors -- End of erasing sectors -- Start of flash programming -- Programming range 0x00400000 - 0x004021FF (017 Sectors, 8 KB)
 -- End of flash programming -- Flash programming performed for 1 range (8704 bytes) -- 0x400000 - 0x4021FF (017 Sectors, 8 KB) -- Start of verifying flash -- Checksum calculation was estimated as fastest method -- End of verifying flash -- Start of restoring -- Restore RAMCode -- Restore content of target memory -- Restore target -- Restore memory -- Restore content of registers -- End of restoring
 -- Total time needed: 0.583s (Prepare: 0.206s, Compare: 0.128s, Erase: 0.000s, Program: 0.228s, Verify: 0.002s, Restore: 0.017s)  returns 0xFFFFFFFE (0600ms, 140071ms total)
T0CA8 13456:507 JLINK_IsHalted()  returns TRUE (0008ms, 140079ms total)
T0B54 13456:518 JLINK_ReadReg(R13 (SP))  returns 0xFFFFFFFC (0000ms, 140079ms total)
T0CA8 13456:718 JLINK_IsHalted()  returns TRUE (0000ms, 140079ms total)
T0B54 13456:725 JLINK_ReadReg(R0)  returns 0x400E1400 (0000ms, 140079ms total)
T0B54 13456:725 JLINK_ReadReg(R1)  returns 0x40C00000 (0000ms, 140079ms total)
T0B54 13456:726 JLINK_ReadReg(R2)  returns 0xA5000005 (0000ms, 140079ms total)
T0B54 13456:726 JLINK_ReadReg(R3)  returns 0x000001F4 (0000ms, 140079ms total)
T0B54 13456:726 JLINK_ReadReg(R4)  returns 0x004011F5 (0000ms, 140079ms total)
T0B54 13456:726 JLINK_ReadReg(R5)  returns 0x00080000 (0000ms, 140079ms total)
T0B54 13456:726 JLINK_ReadReg(R6)  returns 0x0040032D (0000ms, 140079ms total)
T0B54 13456:726 JLINK_ReadReg(R7)  returns 0x20003498 (0000ms, 140079ms total)
T0B54 13456:726 JLINK_ReadReg(R8)  returns 0xE000E100 (0000ms, 140079ms total)
T0B54 13456:726 JLINK_ReadReg(R9)  returns 0x004005A9 (0000ms, 140079ms total)
T0B54 13456:726 JLINK_ReadReg(R10)  returns 0x004001F1 (0000ms, 140079ms total)
T0B54 13456:726 JLINK_ReadReg(R11)  returns 0x00400791 (0000ms, 140079ms total)
T0B54 13456:726 JLINK_ReadReg(R12)  returns 0x000003D2 (0000ms, 140079ms total)
T0B54 13456:726 JLINK_ReadReg(R13 (SP))  returns 0xFFFFFFFC (0000ms, 140079ms total)
T0B54 13456:726 JLINK_ReadReg(R14)  returns 0xFFFFFFFF (0000ms, 140079ms total)
T0B54 13456:726 JLINK_ReadReg(R15 (PC))  returns 0xFFFFFFFE (0000ms, 140079ms total)
T0B54 13456:726 JLINK_ReadReg(XPSR)  returns 0x01000000 (0000ms, 140079ms total)
T0B54 13456:726 JLINK_ReadReg(MSP)  returns 0xFFFFFFFC (0000ms, 140079ms total)
T0B54 13456:726 JLINK_ReadReg(PSP)  returns 0x3DB6DDA8 (0000ms, 140079ms total)
T0B54 13456:726 JLINK_ReadReg(PRIMASK)  returns 0x00000000 (0000ms, 140079ms total)
T0B54 13456:726 JLINK_ReadReg(BASEPRI)  returns 0x00000000 (0000ms, 140079ms total)
T0B54 13456:727 JLINK_ReadReg(FAULTMASK)  returns 0x00000000 (0000ms, 140079ms total)
T0B54 13456:727 JLINK_ReadReg(CONTROL)  returns 0x00000000 (0000ms, 140079ms total)
T0B54 13456:763 JLINK_EndDownload()  returns 0x00 (0000ms, 140079ms total)
T0B54 13456:763 JLINK_Reset() -- CPU_ReadMem(16 bytes @ 0x20000000) -- CPU_WriteMem(16 bytes @ 0x20000000) -- CPU_ReadMem(4 bytes @ 0xE000EDFC) -- CPU_WriteMem(4 bytes @ 0xE000EDFC) -- CPU_ReadMem(4 bytes @ 0xE0001000) -- CPU_WriteMem(4 bytes @ 0xE000EDFC) -- CPU_WriteMem(16 bytes @ 0x20000000) -- CPU_WriteMem(4 bytes @ 0xE0002000) -- CPU_ReadMem(4 bytes @ 0xE000EDFC) -- CPU_ReadMem(4 bytes @ 0xE0001000) (0058ms, 140137ms total)
T0CA8 13456:821 JLINK_IsHalted()  returns TRUE (0000ms, 140137ms total)
T0CA8 13456:821 JLINK_GetMOEs(...) -- CPU_ReadMem(4 bytes @ 0xE000ED30) -- CPU_WriteMem(4 bytes @ 0xE000ED30)  returns 0x01 (0007ms, 140144ms total)
T0CA8 13456:828 JLINK_ReadReg(R15 (PC))  returns 0x00401298 (0000ms, 140144ms total)
T0B54 13456:831 JLINK_ReadReg(R15 (PC))  returns 0x00401298 (0000ms, 140144ms total)
T0B54 13456:831 JLINK_ReadReg(R13 (SP))  returns 0x200034D0 (0000ms, 140144ms total)
T0B54 13456:846 JLINK_ReadMemHW(0x00401298, 0x0004 Bytes, ...) -- CPU_ReadMem(4 bytes @ 0x00401298) - Data: 80 B5 84 B0  returns 0x00 (0003ms, 140147ms total)
T0B54 13456:867 JLINK_ReadMemHW(0x00401A0A, 0x0002 Bytes, ...) -- CPU_ReadMem(2 bytes @ 0x00401A0A) - Data: 1B 4B  returns 0x00 (0006ms, 140153ms total)
T0B54 13456:874 JLINK_ReadMemHW(0x00401A0C, 0x0002 Bytes, ...) -- CPU_ReadMem(2 bytes @ 0x00401A0C) - Data: 98 47  returns 0x00 (0002ms, 140155ms total)
T0B54 13456:877 JLINK_ReadMemHW(0x00401A44, 0x0002 Bytes, ...) -- CPU_ReadMem(2 bytes @ 0x00401A44) - Data: 0F 48  returns 0x00 (0002ms, 140157ms total)
T09D0 13456:882 JLINK_GetNumBPUnits(Type = 0xFFFFFF02)  returns 0x06 (0000ms, 140157ms total)
T09D0 13456:882 JLINK_SetBPEx(Addr = 0x00401A44, Type = 0xFFFFFFF2)  returns 0x00000001 (0000ms, 140157ms total)
T09D0 13456:882 JLINK_GetBPInfo(BPHandle = 1)  returns 0x00 (0000ms, 140157ms total)
T0B54 13456:924 JLINK_ReadMemHW(0x00401A0A, 0x0002 Bytes, ...) -- CPU_ReadMem(2 bytes @ 0x00401A0A) - Data: 1B 4B  returns 0x00 (0009ms, 140166ms total)
T0B54 13456:933 JLINK_ReadMemHW(0x00401A0C, 0x0002 Bytes, ...) -- CPU_ReadMem(2 bytes @ 0x00401A0C) - Data: 98 47  returns 0x00 (0003ms, 140169ms total)
T0B54 13456:936 JLINK_ReadMemHW(0x00401A20, 0x0002 Bytes, ...) -- CPU_ReadMem(2 bytes @ 0x00401A20) - Data: 07 F1  returns 0x00 (0003ms, 140172ms total)
T09D0 13456:942 JLINK_SetBPEx(Addr = 0x00401A20, Type = 0xFFFFFFF2)  returns 0x00000002 (0000ms, 140172ms total)
T09D0 13456:942 JLINK_GetBPInfo(BPHandle = 2)  returns 0x00 (0000ms, 140172ms total)
T0B54 13456:971 JLINK_ReadMemHW(0x00401ACC, 0x0001 Bytes, ...) -- CPU_ReadMem(1 bytes @ 0x00401ACC) - Data: 80  returns 0x00 (0005ms, 140177ms total)
T0B54 13456:987 JLINK_ReadReg(R15 (PC))  returns 0x00401298 (0000ms, 140177ms total)
T0B54 13456:987 JLINK_SetBPEx(Addr = 0x00401ACC, Type = 0xFFFFFF02)  returns 0x00000003 (0000ms, 140177ms total)
T0B54 13456:987 JLINK_GetBPInfo(BPHandle = 3)  returns 0x00 (0000ms, 140177ms total)
T0B54 13456:988 JLINK_Go() -- CPU_ReadMem(4 bytes @ 0xE0001000) -- CPU_WriteMem(4 bytes @ 0xE0002008) -- CPU_WriteMem(4 bytes @ 0xE000200C) -- CPU_WriteMem(4 bytes @ 0xE0002010) -- CPU_WriteMem(4 bytes @ 0xE0002014) -- CPU_WriteMem(4 bytes @ 0xE0002018) -- CPU_WriteMem(4 bytes @ 0xE000201C) -- CPU_WriteMem(4 bytes @ 0xE0001004) (0026ms, 140203ms total)
T0CA8 13457:014 JLINK_IsHalted()  returns TRUE (0006ms, 140209ms total)
T0CA8 13457:020 JLINK_GetMOEs(...) -- CPU_ReadMem(4 bytes @ 0xE000ED30) -- CPU_WriteMem(4 bytes @ 0xE000ED30)  returns 0x01 (0004ms, 140207ms total)
T0CA8 13457:024 JLINK_ReadReg(R15 (PC))  returns 0x00401ACC (0000ms, 140207ms total)
T0CA8 13457:024 JLINK_GetBPInfo(BPHandle = 3)  returns 0x00 (0000ms, 140207ms total)
T0CA8 13457:024 JLINK_ClrBPEx(BPHandle = 0x00000003)  returns 0x00 (0000ms, 140207ms total)
T0B54 13457:034 JLINK_ReadReg(R15 (PC))  returns 0x00401ACC (0000ms, 140207ms total)
T0B54 13457:034 JLINK_ReadReg(R13 (SP))  returns 0x200034B8 (0000ms, 140207ms total)
T0B54 13457:035 JLINK_ReadMemHW(0x00401ACC, 0x0004 Bytes, ...) -- CPU_ReadMem(4 bytes @ 0x00401ACC) - Data: 80 B5 00 AF  returns 0x00 (0002ms, 140209ms total)
T0B54 13457:044 JLINK_ReadReg(R15 (PC))  returns 0x00401ACC (0000ms, 140209ms total)
T0B54 13457:044 JLINK_Go() -- CPU_ReadMem(4 bytes @ 0xE0001000) -- CPU_WriteMem(4 bytes @ 0xE0002010) (0007ms, 140216ms total)
T0CA8 13457:051 JLINK_IsHalted()  returns FALSE (0002ms, 140218ms total)
T0CA8 13457:093 JLINK_IsHalted()  returns TRUE (0011ms, 140227ms total)
T0CA8 13457:104 JLINK_GetMOEs(...) -- CPU_ReadMem(4 bytes @ 0xE000ED30) -- CPU_WriteMem(4 bytes @ 0xE000ED30)  returns 0x01 (0005ms, 140221ms total)
T0CA8 13457:109 JLINK_ReadReg(R15 (PC))  returns 0x00401A20 (0000ms, 140221ms total)
T0B54 13457:111 JLINK_ReadReg(R15 (PC))  returns 0x00401A20 (0000ms, 140221ms total)
T0B54 13457:111 JLINK_ReadReg(R13 (SP))  returns 0x20003488 (0000ms, 140221ms total)
T0B54 13457:113 JLINK_ReadMemHW(0x00401A20, 0x0004 Bytes, ...) -- CPU_ReadMem(4 bytes @ 0x00401A20) - Data: 07 F1 08 02  returns 0x00 (0003ms, 140224ms total)
T0B54 13457:117 JLINK_ReadReg(R0)  returns 0x00000000 (0001ms, 140225ms total)
T0B54 13457:118 JLINK_ReadReg(R1)  returns 0x00000001 (0000ms, 140225ms total)
T0B54 13457:118 JLINK_ReadReg(R2)  returns 0x400E0400 (0000ms, 140225ms total)
T0B54 13457:118 JLINK_ReadReg(R3)  returns 0x00000000 (0000ms, 140225ms total)
T0B54 13457:118 JLINK_ReadReg(R4)  returns 0x004011F5 (0000ms, 140225ms total)
T0B54 13457:118 JLINK_ReadReg(R5)  returns 0x00080000 (0000ms, 140225ms total)
T0B54 13457:118 JLINK_ReadReg(R6)  returns 0x0040032D (0000ms, 140225ms total)
T0B54 13457:118 JLINK_ReadReg(R7)  returns 0x20003490 (0000ms, 140225ms total)
T0B54 13457:118 JLINK_ReadReg(R8)  returns 0xE000E100 (0000ms, 140225ms total)
T0B54 13457:118 JLINK_ReadReg(R9)  returns 0x004005A9 (0000ms, 140225ms total)
T0B54 13457:118 JLINK_ReadReg(R10)  returns 0x004001F1 (0000ms, 140225ms total)
T0B54 13457:118 JLINK_ReadReg(R11)  returns 0x00400791 (0000ms, 140225ms total)
T0B54 13457:118 JLINK_ReadReg(R12)  returns 0x000003D2 (0000ms, 140225ms total)
T0B54 13457:118 JLINK_ReadReg(R13 (SP))  returns 0x20003488 (0000ms, 140225ms total)
T0B54 13457:118 JLINK_ReadReg(R14)  returns 0x00401A21 (0000ms, 140225ms total)
T0B54 13457:118 JLINK_ReadReg(R15 (PC))  returns 0x00401A20 (0000ms, 140225ms total)
T0B54 13457:119 JLINK_ReadReg(XPSR)  returns 0x01000000 (0000ms, 140225ms total)
T0B54 13457:119 JLINK_ReadReg(MSP)  returns 0x20003488 (0000ms, 140225ms total)
T0B54 13457:119 JLINK_ReadReg(PSP)  returns 0x3DB6DDA8 (0000ms, 140225ms total)
T0B54 13457:119 JLINK_ReadReg(PRIMASK)  returns 0x00000000 (0000ms, 140225ms total)
T0B54 13457:119 JLINK_ReadReg(BASEPRI)  returns 0x00000000 (0000ms, 140225ms total)
T0B54 13457:119 JLINK_ReadReg(FAULTMASK)  returns 0x00000000 (0000ms, 140225ms total)
T0B54 13457:119 JLINK_ReadReg(CONTROL)  returns 0x00000000 (0000ms, 140225ms total)
T0B54 13457:136 JLINK_ReadMem (0x200034AC, 0x0004 Bytes, ...) -- CPU_ReadMem(64 bytes @ 0x20003480) -- Updating C cache (64 bytes @ 0x20003480) -- Read from C cache (4 bytes @ 0x200034AC) - Data: F9 1A 40 00  returns 0x00 (0002ms, 140227ms total)
T0B54 13457:139 JLINK_ReadMem (0x200034AC, 0x0004 Bytes, ...) -- Read from C cache (4 bytes @ 0x200034AC) - Data: F9 1A 40 00  returns 0x00 (0000ms, 140227ms total)
T0B54 13457:140 JLINK_ReadMemHW(0x00401AF8, 0x0004 Bytes, ...) -- CPU_ReadMem(4 bytes @ 0x00401AF8) - Data: 11 4B 98 47  returns 0x00 (0001ms, 140228ms total)
T0B54 13457:143 JLINK_ReadMem (0x200034A8, 0x0004 Bytes, ...) -- Read from C cache (4 bytes @ 0x200034A8) - Data: B0 34 00 20  returns 0x00 (0000ms, 140228ms total)
T09D0 13457:168 JLINK_GetDebugInfo(0x100) -- Value=0xE00FF003  returns 0x00 (0000ms, 140228ms total)
T09D0 13457:168 JLINK_ReadMem (0xE00FFFF0, 0x0010 Bytes, ...) -- CPU_ReadMem(16 bytes @ 0xE00FFFF0) - Data: 0D 00 00 00 10 00 00 00 05 00 00 00 B1 00 00 00  returns 0x00 (0003ms, 140231ms total)
T09D0 13457:171 JLINK_ReadMem (0xE00FFFD0, 0x0020 Bytes, ...) -- CPU_ReadMem(32 bytes @ 0xE00FFFD0) - Data: 04 00 00 00 00 00 00 00 00 00 00 00 00 00 00 00 ...  returns 0x00 (0002ms, 140233ms total)
T09D0 13457:173 JLINK_ReadMemU32(0xE00FF000, 0x0001 Items, ...) -- CPU_ReadMem(4 bytes @ 0xE00FF000) - Data: 03 F0 F0 FF  returns 0x01 (0002ms, 140235ms total)
T09D0 13457:175 JLINK_ReadMem (0xE000EFF0, 0x0010 Bytes, ...) -- CPU_ReadMem(16 bytes @ 0xE000EFF0) - Data: 0D 00 00 00 E0 00 00 00 05 00 00 00 B1 00 00 00  returns 0x00 (0003ms, 140238ms total)
T09D0 13457:178 JLINK_ReadMem (0xE000EFD0, 0x0020 Bytes, ...) -- CPU_ReadMem(32 bytes @ 0xE000EFD0) - Data: 04 00 00 00 00 00 00 00 00 00 00 00 00 00 00 00 ...  returns 0x00 (0002ms, 140240ms total)
T09D0 13457:180 JLINK_ReadMemU32(0xE00FF004, 0x0001 Items, ...) -- CPU_ReadMem(4 bytes @ 0xE00FF004) - Data: 03 20 F0 FF  returns 0x01 (0003ms, 140243ms total)
T09D0 13457:183 JLINK_ReadMem (0xE0001FF0, 0x0010 Bytes, ...) -- CPU_ReadMem(16 bytes @ 0xE0001FF0) - Data: 0D 00 00 00 E0 00 00 00 05 00 00 00 B1 00 00 00  returns 0x00 (0002ms, 140245ms total)
T09D0 13457:185 JLINK_ReadMem (0xE0001FD0, 0x0020 Bytes, ...) -- CPU_ReadMem(32 bytes @ 0xE0001FD0) - Data: 04 00 00 00 00 00 00 00 00 00 00 00 00 00 00 00 ...  returns 0x00 (0002ms, 140247ms total)
T09D0 13457:187 JLINK_ReadMemU32(0xE00FF008, 0x0001 Items, ...) -- CPU_ReadMem(4 bytes @ 0xE00FF008) - Data: 03 30 F0 FF  returns 0x01 (0002ms, 140249ms total)
T09D0 13457:189 JLINK_ReadMem (0xE0002FF0, 0x0010 Bytes, ...) -- CPU_ReadMem(16 bytes @ 0xE0002FF0) - Data: 0D 00 00 00 E0 00 00 00 05 00 00 00 B1 00 00 00  returns 0x00 (0003ms, 140252ms total)
T09D0 13457:192 JLINK_ReadMem (0xE0002FD0, 0x0020 Bytes, ...) -- CPU_ReadMem(32 bytes @ 0xE0002FD0) - Data: 04 00 00 00 00 00 00 00 00 00 00 00 00 00 00 00 ...  returns 0x00 (0003ms, 140255ms total)
T09D0 13457:195 JLINK_ReadMemU32(0xE00FF00C, 0x0001 Items, ...) -- CPU_ReadMem(4 bytes @ 0xE00FF00C) - Data: 03 10 F0 FF  returns 0x01 (0002ms, 140257ms total)
T09D0 13457:197 JLINK_ReadMem (0xE0000FF0, 0x0010 Bytes, ...) -- CPU_ReadMem(16 bytes @ 0xE0000FF0) - Data: 0D 00 00 00 E0 00 00 00 05 00 00 00 B1 00 00 00  returns 0x00 (0002ms, 140259ms total)
T09D0 13457:199 JLINK_ReadMem (0xE0000FD0, 0x0020 Bytes, ...) -- CPU_ReadMem(32 bytes @ 0xE0000FD0) - Data: 04 00 00 00 00 00 00 00 00 00 00 00 00 00 00 00 ...  returns 0x00 (0003ms, 140262ms total)
T09D0 13457:202 JLINK_ReadMemU32(0xE00FF010, 0x0001 Items, ...) -- CPU_ReadMem(4 bytes @ 0xE00FF010) - Data: 03 10 F4 FF  returns 0x01 (0003ms, 140265ms total)
T09D0 13457:205 JLINK_ReadMem (0xE0040FF0, 0x0010 Bytes, ...) -- CPU_ReadMem(16 bytes @ 0xE0040FF0) - Data: 0D 00 00 00 90 00 00 00 05 00 00 00 B1 00 00 00  returns 0x00 (0003ms, 140268ms total)
T09D0 13457:208 JLINK_ReadMem (0xE0040FD0, 0x0020 Bytes, ...) -- CPU_ReadMem(32 bytes @ 0xE0040FD0) - Data: 04 00 00 00 00 00 00 00 00 00 00 00 00 00 00 00 ...  returns 0x00 (0002ms, 140270ms total)
T09D0 13457:210 JLINK_ReadMemU32(0xE00FF014, 0x0001 Items, ...) -- CPU_ReadMem(4 bytes @ 0xE00FF014) - Data: 02 20 F4 FF  returns 0x01 (0002ms, 140272ms total)
T09D0 13457:212 JLINK_ReadMemU32(0xE00FF018, 0x0001 Items, ...) -- CPU_ReadMem(4 bytes @ 0xE00FF018) - Data: 00 00 00 00  returns 0x01 (0003ms, 140275ms total)
T09D0 13457:215 JLINK_GetDebugInfo(0x100) -- Value=0xE00FF003  returns 0x00 (0000ms, 140275ms total)
T09D0 13457:215 JLINK_ReadMem (0xE00FFFF0, 0x0010 Bytes, ...) -- CPU_ReadMem(16 bytes @ 0xE00FFFF0) - Data: 0D 00 00 00 10 00 00 00 05 00 00 00 B1 00 00 00  returns 0x00 (0002ms, 140277ms total)
T09D0 13457:217 JLINK_ReadMem (0xE00FFFD0, 0x0020 Bytes, ...) -- CPU_ReadMem(32 bytes @ 0xE00FFFD0) - Data: 04 00 00 00 00 00 00 00 00 00 00 00 00 00 00 00 ...  returns 0x00 (0003ms, 140280ms total)
T09D0 13457:220 JLINK_ReadMemU32(0xE00FF000, 0x0001 Items, ...) -- CPU_ReadMem(4 bytes @ 0xE00FF000) - Data: 03 F0 F0 FF  returns 0x01 (0002ms, 140282ms total)
T09D0 13457:222 JLINK_ReadMem (0xE000EFF0, 0x0010 Bytes, ...) -- CPU_ReadMem(16 bytes @ 0xE000EFF0) - Data: 0D 00 00 00 E0 00 00 00 05 00 00 00 B1 00 00 00  returns 0x00 (0002ms, 140284ms total)
T09D0 13457:224 JLINK_ReadMem (0xE000EFD0, 0x0020 Bytes, ...) -- CPU_ReadMem(32 bytes @ 0xE000EFD0) - Data: 04 00 00 00 00 00 00 00 00 00 00 00 00 00 00 00 ...  returns 0x00 (0002ms, 140286ms total)
T09D0 13457:226 JLINK_ReadMemU32(0xE00FF004, 0x0001 Items, ...) -- CPU_ReadMem(4 bytes @ 0xE00FF004) - Data: 03 20 F0 FF  returns 0x01 (0002ms, 140288ms total)
